# HZ S RI R 50
100000 0.101892768 0.807241792
199000 0.650110784 0.660143232
298000 0.844463104 0.463788288
397000 0.924791552 0.319991584
496000 0.962616832 0.21365784
595000 0.981536512 0.129633696
694000 0.99103072 0.059134988
793000 0.99446176 -0.001638276
892000 0.99385312 -0.055435808
991000 0.99046528 -0.104728056
1090000 0.985436352 -0.149985792
1189000 0.978127296 -0.192637488
1288000 0.96988544 -0.232314352
1387000 0.959938048 -0.270531904
1486000 0.948971776 -0.30667856
1585000 0.93717888 -0.342285856
1684000 0.924195776 -0.375979712
1783000 0.90992512 -0.408341184
1882000 0.895155648 -0.440197888
1981000 0.879122816 -0.47080784
2080000 0.86199392 -0.500828448
2179000 0.844585728 -0.529160544
2278000 0.825710592 -0.557121088
2377000 0.806630976 -0.584758656
2476000 0.78662048 -0.611214144
2575000 0.76524896 -0.636752768
2674000 0.742888704 -0.661899776
2773000 0.72014592 -0.685515904
2872000 0.696587136 -0.709044864
2971000 0.671578304 -0.731858624
3070000 0.64585024 -0.75335712
3169000 0.618904512 -0.774488384
3268000 0.590832576 -0.794718848
3367000 0.561132608 -0.81379648
3466000 0.528820864 -0.83226784
3565000 0.494228416 -0.84962496
3664000 0.45473808 -0.86480992
3763000 0.409607936 -0.87569952
3862000 0.352351424 -0.875044416
3961000 0.283226912 -0.837195008
4060000 0.287124 -0.722795776
4159000 0.40906384 -0.737446528
4258000 0.415470496 -0.826317376
4357000 0.37973664 -0.87754528
4456000 0.339704928 -0.907520832
4555000 0.300830208 -0.927348096
4654000 0.26354808 -0.94183232
4753000 0.226769296 -0.953055616
4852000 0.190516144 -0.961604288
4951000 0.15482536 -0.968116736
5050000 0.119214824 -0.97274848
5149000 0.083496144 -0.976128768
5248000 0.047746664 -0.977871104
5347000 0.011521944 -0.977728448
5446000 -0.02463778 -0.976484224
5545000 -0.061327172 -0.973491328
5644000 -0.098081832 -0.968772096
5743000 -0.135895936 -0.962497856
5842000 -0.173844048 -0.954244928
5941000 -0.212585344 -0.944135488
6040000 -0.251962064 -0.9315328
6139000 -0.29231328 -0.91597344
6238000 -0.333810464 -0.897515008
6337000 -0.376214368 -0.875604928
6436000 -0.419506016 -0.849089408
6535000 -0.463944672 -0.816720128
6634000 -0.509743616 -0.777783872
6733000 -0.55654304 -0.728809024
6832000 -0.602428992 -0.668342592
6931000 -0.645931968 -0.590566144
7030000 -0.682153792 -0.4904
7129000 -0.69925824 -0.359361952
7228000 -0.676120896 -0.193778848
7327000 -0.573415168 -0.002324502
7426000 -0.346190528 0.158045888
7525000 -0.01417724 0.169593968
7624000 0.269331296 -0.027650258
7723000 0.371709248 -0.316771808
7822000 0.327774976 -0.558026304
7921000 0.22280168 -0.716423936
8020000 0.108627024 -0.807653696
8119000 0.002727722 -0.856728192
8218000 -0.090211776 -0.880069504
8317000 -0.170286544 -0.887556736
8416000 -0.240061184 -0.885217664
8515000 -0.300991264 -0.876746368
8614000 -0.355091328 -0.864365184
8713000 -0.403649568 -0.848612736
8812000 -0.447123424 -0.8315008
8911000 -0.486719776 -0.812463616
9010000 -0.523549984 -0.792706624
9109000 -0.55710784 -0.771725696
9208000 -0.58831872 -0.749936128
9307000 -0.6169136 -0.727862464
9406000 -0.64423904 -0.705268032
9505000 -0.669500608 -0.682676352
9604000 -0.693215552 -0.658978816
9703000 -0.71529344 -0.635872704
9802000 -0.736240128 -0.611832768
9901000 -0.75577728 -0.587439488
10000000 -0.774293184 -0.56310336
