# HZ S RI R 50
50000 -0.94213558719093 0.29719125442048533
59500 -0.9415989388730023 0.3814747102375518
69000 -0.8806634852796467 0.44055112261671714
78500 -0.8511423949704119 0.5008745905505753
88000 -0.8148600144507632 0.5529145033485435
97500 -0.7791097144509224 0.5995267670288467
107000 -0.7414290832294307 0.6475191127614393
116500 -0.701646272704768 0.6899255011458006
126000 -0.6610927405833719 0.7306246626410587
135500 -0.6188608533830544 0.7658199334602808
145000 -0.5734317030560443 0.7954549891719863
154500 -0.5370191909335809 0.8255779005233882
164000 -0.49136878325639677 0.8530610254616476
173500 -0.4470822403277075 0.8773062720285654
183000 -0.4013141244149455 0.8994289376022516
192500 -0.35212437396350754 0.9182930326716584
202000 -0.3165467196846131 0.9297068865341744
211500 -0.2705325250394893 0.946517057042318
221000 -0.22491685419270882 0.959632395593621
230500 -0.17764012603661303 0.9681338688150822
240000 -0.13202875052096424 0.9643421662728091
249500 -0.09551079281956554 0.9754809416040539
259000 -0.04996593943959242 0.9810670174083124
268500 -0.007507445133697477 0.981450206595683
278000 0.03595618724285151 0.9827764149431494
287500 0.07482003552536189 0.973372224427821
297000 0.11302087864074331 0.9745375990926802
306500 0.1542245375295181 0.9722020695763396
316000 0.20160105803376582 0.9579245478265411
325500 0.2342045798574851 0.945917648911372
335000 0.2678059333488319 0.9451119043938239
344500 0.3080052660137929 0.927302943024546
354000 0.34907019676335366 0.9114692530459184
363500 0.37321933597198304 0.8978236798723306
373000 0.41525989511774053 0.8838885493435291
382500 0.45676368350918795 0.8627113604967764
392000 0.47317232722970315 0.8399851177740308
401500 0.5225762007649606 0.807952167735638
411000 0.5722633568148151 0.7836327668490987
420500 0.5682063510163384 0.7512387992392797
430000 0.6329134307220253 0.6918509557668305
439500 0.7007623723340364 0.6354264001438665
449000 0.6426730087503946 0.5685268803557336
458500 0.5751783538658346 0.2860319969766619
468000 0.6736945853596044 0.39802536886857076
477500 0.4889952106594082 0.23451522600509167
487000 0.3889689034566622 0.3130845527218401
496500 0.38937968564552455 -0.18969463253504545
506000 0.39156443008740793 0.679633805177588
515500 0.2816448977931305 0.8551044093825119
525000 0.2149006204160111 0.9364349823588995
534500 0.29180464733964956 0.7516344083497318
544000 0.5071961057140384 0.7086990595161834
553500 0.5273707168829608 0.778338867214259
563000 0.5824873598599826 0.7631437895256249
572500 0.6157152603203082 0.7058063304256914
582000 0.6456951611893829 0.6973201000963375
591500 0.6849514399923233 0.6736944493213329
601000 0.719289114458998 0.6569384927924248
610500 0.7269302282506473 0.6214162403086534
620000 0.7573327374897583 0.6048989042873314
629500 0.7837304664029924 0.5891808371118225
639000 0.793917296241212 0.5537896961652323
648500 0.8201115051806942 0.544277190558411
658000 0.829056272300284 0.5209083957048274
667500 0.8456067752925861 0.49443109586906975
677000 0.8563994260368709 0.47591895388892724
686500 0.8705235001924821 0.45817440705436924
696000 0.8827435479106402 0.4347910734068684
705500 0.8948634284322129 0.4142634160250004
715000 0.9043483196856957 0.39628314534848885
724500 0.9138397817173751 0.37297599052665736
734000 0.9222392242092238 0.354902367888328
743500 0.9288447200419581 0.33654017840346706
753000 0.9382247314016877 0.31496870598663346
762500 0.942962105706167 0.29222680420213637
772000 0.948473907836427 0.2785101680667468
781500 0.9562420726066462 0.2570830731197389
791000 0.9607731138415639 0.23502091896507368
800500 0.9642846243217957 0.21777914437504303
810000 0.9692083209583803 0.19993821494515182
819500 0.9737210140286281 0.17933578533202854
829000 0.9769715685013457 0.16000087428397106
838500 0.9785908934863481 0.14419749397597253
848000 0.9826925679063624 0.12406329972127457
857500 0.9851883906093739 0.10486162159633647
867000 0.9836064438789329 0.08907561132193924
876500 0.9883510880411379 0.06944017391571239
886000 0.9898918168925156 0.05093282355075155
895500 0.9876907841324325 0.03182239185773284
905000 0.9909909354264568 0.017628071355236027
914500 0.9918176585846838 -0.0007160317905009295
924000 0.9906278646344777 -0.02026810572993652
933500 0.9887687375286994 -0.03289012168538296
943000 0.9901526291442814 -0.051581048924444206
952500 0.9895866350302832 -0.069650223312231
962000 0.984086297940004 -0.08656555945048588
971500 0.9865658972385732 -0.10043408891417027
981000 0.9848471408006642 -0.11830301272086954
990500 0.9819141373033494 -0.1363602836842196
1000000 0.9770610099768174 -0.14805373892351673
