# HZ S RI R 50
50 1.21233296 -0.049191432 -0.03015968 0.00571325 0 0 0 0
100 1.128578544 0.051822896 0.032136738 -0.001941851 0 0 0 0
150 0.01709371 0.422738784 -0.030204876 0.002357337 0 0 0 0
200 0.988617152 0.040930528 -0.040065088 0.008178232 0 0 0 0
250 1.081589224 0.2786584 -0.048263188 -0.036740612 0 0 0 0
300 0.728535232 0.080047592 0.04823138 -0.01162121 0 0 0 0
350 1.71788288 -0.200882304 -0.031354684 0.014785486 0 0 0 0
400 1.084796072 -0.013571232 0.130458656 -0.002777544 0 0 0 0
450 1.073449728 -0.033806952 -0.036951196 0.011259704 0 0 0 0
500 0.4060848 0.090200248 0.071867336 0.068305512 0 0 0 0
550 0.85458496 0.046448724 -0.036367124 0.002132258 0 0 0 0
600 1.098660944 -0.055850552 -0.046912572 -0.009251006 0 0 0 0
650 0.825793792 -0.192111728 -0.008323973 -0.061843628 0 0 0 0
700 0.637010752 -0.06768328 -0.051251456 0.007864681 0 0 0 0
750 0.517740672 0.117280624 -0.058634628 -0.006462734 0 0 0 0
800 0.798009344 -0.027320096 0.028110782 -0.027497178 0 0 0 0
850 0.834704064 -0.023380176 -0.022766306 -0.007726799 0 0 0 0
900 0.927712 0.0524104 0.03591146 0.023238044 0 0 0 0
950 0.82409536 -0.045447032 -0.029808884 0.007742536 0 0 0 0
1000 1.122532128 -0.049069924 -0.02825703 0.004675772 0 0 0 0
1050 0.868311616 -0.148893664 0.018291212 0.020733004 0 0 0 0
1100 0.904089536 -0.108627912 0.013974312 -0.042595396 0 0 0 0
1150 1.129278776 -0.194759168 0.004770065 -0.04655846 0 0 0 0
1200 0.788108032 -0.136432784 -0.103934328 0.04149432 0 0 0 0
1250 1.07329416 0.38286192 -0.074859704 -0.025086226 0 0 0 0
1300 0.80445664 -0.105643144 0.04365786 -0.01064445 0 0 0 0
1350 0.876523648 -0.119441752 0.026290484 0.033943376 0 0 0 0
1400 0.79285696 0.131363528 0.217139344 -0.111806104 0 0 0 0
1450 0.80061216 -0.182398752 0.009596104 0.061799352 0 0 0 0
1500 0.803919744 -0.019406516 0.000319976 -0.00619111 0 0 0 0
1550 0.180074352 -0.489713632 0.09141848 0.22095416 0 0 0 0
1600 0.693838208 -0.206231904 0.030575534 -0.00671988 0 0 0 0
1650 0.639293696 -0.218883552 0.020557124 -0.01562446 0 0 0 0
1700 0.85747136 -0.121289184 0.01238375 -0.022220468 0 0 0 0
1750 0.870549952 -0.054770876 -0.022100368 -0.017171946 0 0 0 0
1800 0.896064192 0.012720718 -0.020064126 0.012428742 0 0 0 0
1850 1.03257835 -0.03029814 0.020367098 0.016317152 0 0 0 0
1900 0.892128768 -0.224035328 0.007094277 -0.019962194 0 0 0 0
1950 0.896268224 0.001877712 -0.013055722 0.012960238 0 0 0 0
2000 0.871306112 -0.015067976 -0.014081352 0.01392473 0 0 0 0
2050 0.880970112 -0.003460834 -0.013233646 0.014006778 0 0 0 0
2100 0.946172672 -0.125780496 -0.003943948 -0.01571378 0 0 0 0
2150 1.004761577 -0.005966128 0.0212156 0.012651958 0 0 0 0
2200 0.854428288 -0.040386976 -0.00929876 0.01261863 0 0 0 0
2250 0.939896256 -0.0806444 -0.017829704 -0.006674931 0 0 0 0
2300 0.959607808 -0.11352004 -0.000450433 -0.010484508 0 0 0 0
2350 1.000284672 -0.093595768 0.007215732 -0.01736834 0 0 0 0
2400 0.999381952 -0.044815836 0.007258992 -0.013638522 0 0 0 0
2450 1.008306265 -0.0362753 0.00169185 -0.01524856 0 0 0 0
2500 0.891407744 0.001266918 0.01427683 0.00858831 0 0 0 0
2550 0.880494336 -0.09018928 0.000734831 0.010861 0 0 0 0
2600 0.92913472 -0.06005338 -0.011018446 0.008435072 0 0 0 0
2650 0.911323456 -0.060888744 -0.010904752 0.004832285 0 0 0 0
2700 0.861833408 -0.050493944 0.007430845 0.009112234 0 0 0 0
2750 0.988836608 -0.065199824 -0.001116262 -0.006583838 0 0 0 0
2800 0.937585408 -0.079657048 0.000806868 0.007148579 0 0 0 0
2850 0.982053568 -0.038318384 -0.001333907 -0.006026821 0 0 0 0
2900 0.9136096 -0.072511208 0.006438566 0.005403602 0 0 0 0
2950 0.976924032 -0.079644208 -0.007287469 0.005495507 0 0 0 0
3000 0.922061056 -0.019290782 -0.001107622 -0.00514152 0 0 0 0
3050 0.872542272 -0.05209722 0.007190915 -0.004291534 0 0 0 0
3100 0.929689088 -0.067304152 0.005001475 0.0024899 0 0 0 0
3150 0.917233664 -0.063946224 0.00085377 0.00387116 0 0 0 0
3200 0.924199168 -0.042705004 0.000871784 0.003811676 0 0 0 0
3250 0.948819904 -0.095492048 -0.002483881 0.004046194 0 0 0 0
3300 0.956049344 -0.04909976 -0.004250311 0.003539507 0 0 0 0
3350 0.93585952 -0.0736826 -0.000880259 0.003003074 0 0 0 0
3400 0.91758304 -0.054828328 0.004043972 0.000252619 0 0 0 0
3450 0.904129024 -0.073889352 0.000593432 -0.002965911 0 0 0 0
3500 0.924082624 -0.047464764 -0.002012249 0.002027449 0 0 0 0
3550 0.916795968 -0.049119396 0.00361077 -0.000849315 0 0 0 0
3600 0.911606784 -0.038973904 -0.002671852 0.000288267 0 0 0 0
3650 0.915295168 -0.057377288 0.002509765 -0.001150914 0 0 0 0
3700 0.92193376 -0.02873436 -0.000963038 0.000927092 0 0 0 0
3750 0.91237248 -0.049180804 -0.000222275 -0.001238485 0 0 0 0
3800 0.915890304 -0.039461628 0.001202844 -5.8187e-05 0 0 0 0
3850 0.913403648 -0.0594181 5.5924e-05 0.000493805 0 0 0 0
3900 0.91360864 -0.0532825 -0.000127562 0.00011862 0 0 0 0
3950 0.903190912 -0.048450592 -0.000283766 0.00056577 0 0 0 0
4000 0.914435008 -0.063724532 -0.000727377 0.000180445 0 0 0 0
4050 0.911718464 -0.061280344 0.000232083 -8.3812e-05 0 0 0 0
4100 0.913427456 -0.038258192 0.000134077 -0.000444732 0 0 0 0
4150 0.9082608 -0.049616364 -0.000327729 -0.000287379 0 0 0 0
4200 0.905244352 -0.032973028 -0.001054843 0.000117977 0 0 0 0
4250 0.903791936 -0.041607752 0.000770278 2.0611e-05 0 0 0 0
4300 0.922021888 -0.049989352 -0.000799262 -0.000871597 0 0 0 0
4350 0.90774432 -0.04794368 0.000394949 0.001128281 0 0 0 0
4400 0.925797824 -0.04284578 -5.7445e-05 -0.001583548 0 0 0 0
4450 0.908533312 -0.045770436 0.000694362 0.001688005 0 0 0 0
4500 0.922728896 -0.049894736 -0.001585482 -0.001083101 0 0 0 0
4550 0.908422912 -0.060062304 0.001942962 0.000168641 0 0 0 0
4600 0.898057728 -0.037327568 0.000931291 0.002359897 0 0 0 0
4650 0.915062592 -0.056994764 -0.002204157 3.446e-05 0 0 0 0
4700 0.924886336 -0.03561822 -0.001480243 -0.001488743 0 0 0 0
4750 0.915676416 -0.027998654 -0.001254144 -0.002564887 0 0 0 0
4800 0.906595712 -0.035828432 -0.000893983 -0.002460053 0 0 0 0
4850 0.907714752 -0.033619448 -0.001505079 -0.00269027 0 0 0 0
4900 0.918105408 -0.030275738 -0.001801053 -0.001329711 0 0 0 0
4950 0.9284016 -0.044288044 -0.002225662 0.000293313 0 0 0 0
5000 0.902294656 -0.037167444 0.002048891 -7.694e-05 0 0 0 0
5050 0.925715264 -0.038625748 -0.001898625 0.001034959 0 0 0 0
