# HZ S RI R 50
50 1.174863216 -0.045348892 -0.027538718 0.001980874 0 0 0 0
150 1.05534196 0.007880717 -0.066715636 -0.043582772 0 0 0 0
250 0.791019584 0.157478272 -0.119610704 -0.028061264 0 0 0 0
350 1.070543528 -0.023730638 -0.031555556 0.0007053 0 0 0 0
450 0.8527584 0.131570696 0.012791946 -0.108566088 0 0 0 0
550 1.134219056 -0.14224768 0.035415468 -0.012907412 0 0 0 0
650 0.90232384 0.167178464 -0.059253644 0.021807584 0 0 0 0
750 0.850457664 -0.502501184 -0.09194084 -0.031016742 0 0 0 0
850 0.671400576 -0.16235968 0.032232196 -0.038394744 0 0 0 0
950 0.865937728 0.01422381 0.020597046 0.01502505 0 0 0 0
1050 0.958845568 0.08578144 -0.016306604 -0.026614848 0 0 0 0
1150 1.115550872 0.142105872 0.008467746 -0.05360354 0 0 0 0
1250 0.728689024 0.02862984 -0.043069104 0.002874982 0 0 0 0
1350 0.685504832 0.040432892 0.000754037 -0.028922698 0 0 0 0
1450 0.676866688 0.628945984 -0.021707448 0.05807958 0 0 0 0
1550 3.056890012 -2.546018816 -0.001400843 -0.522240864 0 0 0 0
1650 1.050182104 -0.134616032 0.01829341 0.01800761 0 0 0 0
1750 0.981625472 -0.145589232 0.02619837 -0.002716469 0 0 0 0
1850 0.849065152 -0.08652672 -0.01456152 -0.023260006 0 0 0 0
1950 0.906988736 0.022948792 -0.005986353 0.018200114 0 0 0 0
2050 0.974774784 -0.143534272 0.004169318 -0.01792299 0 0 0 0
2150 0.92637504 0.009758334 0.012310244 0.017541664 0 0 0 0
2250 0.868994496 -0.07243276 -0.014737996 0.01006564 0 0 0 0
2350 0.92727744 -0.075057496 -0.01704317 -0.006544905 0 0 0 0
2450 0.920200768 -0.03825126 -0.016906488 -0.003582129 0 0 0 0
2550 0.934352384 -0.069688872 -0.008863494 0.010850548 0 0 0 0
2650 0.871099392 -0.04535262 0.006035386 0.012481124 0 0 0 0
2750 0.99698048 -0.03063731 -0.000544748 -0.007607583 0 0 0 0
2850 0.9386928 -0.053866828 0.00047589 0.007057498 0 0 0 0
2950 0.983825344 -0.049313888 -0.005559234 -0.00563345 0 0 0 0
3050 0.880357568 -0.026084046 0.001315256 -0.005679587 0 0 0 0
3150 0.920801536 -0.081740104 0.006372338 -0.00363735 0 0 0 0
3250 0.924483584 -0.056706084 0.001944068 0.003273024 0 0 0 0
3350 0.912375488 -0.038035988 0.001220064 0.003180039 0 0 0 0
3450 0.916999744 -0.056012196 0.002229645 -0.002162919 0 0 0 0
3550 0.905641152 -0.036240712 -0.003568367 0.000293501 0 0 0 0
3650 0.917344704 -0.04891206 0.002056135 3.333e-06 0 0 0 0
3750 0.909957696 -0.03008832 -0.001028405 0.000850819 0 0 0 0
3850 0.921849536 -0.038125304 -0.000432928 -0.000266521 0 0 0 0
3950 0.926733184 -0.040582136 -0.000218694 -3.4707e-05 0 0 0 0
4050 0.913313344 -0.038043276 0.000244191 0.000499218 0 0 0 0
4150 0.919492992 -0.060613232 0.000594039 0.000132455 0 0 0 0
4250 0.923996864 -0.039464632 0.00017547 -0.000812329 0 0 0 0
4350 0.903299904 -0.051189108 -0.000189803 0.001290593 0 0 0 0
4450 0.918804544 -0.03874212 -0.000213603 -0.001707754 0 0 0 0
4550 0.904969856 -0.041296084 0.001241708 0.00122042 0 0 0 0
4650 0.901344064 -0.059691876 -0.001658468 0.001071722 0 0 0 0
4750 0.92648992 -0.055668608 -0.002056896 -8.3007e-05 0 0 0 0
4850 0.930348672 -0.044564428 -0.002747297 0.000313533 0 0 0 0
4950 0.915861952 -0.063145244 -0.001286533 0.002339075 0 0 0 0
5050 0.887682944 -0.039119968 0.002455369 0.001694948 0 0 0 0
5150 0.911467264 -0.045266768 -0.001690997 -0.002828085 0 0 0 0
5250 0.913206912 -0.068262528 0.001592034 0.003024128 0 0 0 0
5350 0.905061696 -0.036168348 -0.002489008 -0.000988116 0 0 0 0
5450 0.890213312 -0.033334188 0.000284374 -0.00330518 0 0 0 0
5550 0.89499424 -0.050082592 0.002203125 -0.00121061 0 0 0 0
5650 0.894968256 -0.047000684 0.0019043 -0.001799418 0 0 0 0
5750 0.898555904 -0.057382444 -0.00047344 -0.003564648 0 0 0 0
5850 0.898959872 -0.031184418 -0.002101515 -3.3473e-05 0 0 0 0
5950 0.914019392 -0.04825518 0.002115228 0.002244761 0 0 0 0
6050 0.902691712 -0.0567832 -0.001958688 -0.001524574 0 0 0 0
6150 0.907258752 -0.049240036 0.001820413 -0.001043593 0 0 0 0
6250 0.894984384 -0.049200764 -0.000991956 -0.002058951 0 0 0 0
6350 0.890764864 -0.034422448 0.000703081 0.001792627 0 0 0 0
6450 0.887709312 -0.031759608 0.000631298 0.001650671 0 0 0 0
6550 0.891088448 -0.030827962 0.002130681 -0.000927477 0 0 0 0
6650 0.919038016 -0.046537872 0.000211066 -0.001851889 0 0 0 0
6750 0.896967936 -0.039004144 -0.001559569 0.00183533 0 0 0 0
6850 0.89153984 -0.030208716 0.001138624 -0.001645102 0 0 0 0
6950 0.900904448 -0.039089572 0.000266317 0.001089091 0 0 0 0
7050 0.907218752 -0.048859048 -0.001625476 0.00096769 0 0 0 0
7150 0.905252672 -0.034009708 -0.0014314 -5.2202e-05 0 0 0 0
7250 0.901692096 -0.035587676 -0.001175267 6.5621e-05 0 0 0 0
7350 0.904748864 -0.038306972 -0.001363262 0.000554982 0 0 0 0
7450 0.893967104 -0.044722876 0.000705968 0.000293052 0 0 0 0
7550 0.893827712 -0.041976388 -1.4637e-05 -0.000356737 0 0 0 0
7650 0.896752192 -0.035288176 0.000249068 0.000292966 0 0 0 0
7750 0.891447424 -0.041313136 -0.000117362 -0.000131646 0 0 0 0
7850 0.89046432 -0.036053056 -3.6188e-05 -0.000125493 0 0 0 0
7950 0.895681216 -0.039119156 9.4156e-05 -1.9079e-05 0 0 0 0
8050 0.894543232 -0.039259256 -9.3615e-05 0.000233942 0 0 0 0
8150 0.895014848 -0.037801532 0.000143127 5.6328e-05 0 0 0 0
8250 0.891736064 -0.034982252 0.000411563 0.000286239 0 0 0 0
8350 0.89168128 -0.03496244 -0.00039473 -0.000277275 0 0 0 0
8450 0.894900608 -0.038781368 0.000566937 0.000359692 0 0 0 0
8550 0.892655808 -0.037650072 -0.000841349 -6.6173e-05 0 0 0 0
8650 0.895522048 -0.0315676 -3.6432e-05 -0.000899209 0 0 0 0
8750 0.89010624 -0.035323 0.000210443 -0.000873711 0 0 0 0
8850 0.891290048 -0.038429428 0.000222492 -0.001107003 0 0 0 0
8950 0.88903808 -0.032339268 -0.000446474 -0.001254698 0 0 0 0
9050 0.89727232 -0.038138468 -0.001059275 0.000490705 0 0 0 0
9150 0.882130368 -0.034375844 0.000733438 0.000324989 0 0 0 0
9250 0.888343168 -0.030047142 -0.001033501 -0.000522015 0 0 0 0
9350 0.883669568 -0.030962768 0.001040709 -0.000902391 0 0 0 0
9450 0.895402304 -0.045422832 0.000504861 0.001206189 0 0 0 0
9550 0.892958016 -0.034455232 3.7237e-05 0.001611113 0 0 0 0
9650 0.893237056 -0.033269286 -0.000116769 0.001197169 0 0 0 0
9750 0.893413568 -0.03774382 0.000654886 0.000649159 0 0 0 0
9850 0.884963776 -0.042022336 0.001093295 -0.001305675 0 0 0 0
9950 0.884683648 -0.028598844 -0.00139839 0.000620756 0 0 0 0
10050 0.892912896 -0.041443444 0.001275297 -0.00088524 0 0 0 0
