# HZ S RI R 50
50000 0.3689396592383613 0.17350011066410814
59500 0.3940876442201399 0.1932713331889539
69000 0.418814648718456 0.2104108954749859
78500 0.42906655259431137 0.21199100500281523
88000 0.4250780178317418 0.2923915036665549
97500 0.48997640803972287 0.2858681345960317
107000 0.5229027662788548 0.28182512734964626
116500 0.547520753761586 0.2758781229789375
126000 0.5514798668051168 0.2733110531258176
135500 0.5752212390130774 0.3023587045638743
145000 0.6102329880422729 0.2985341660287068
154500 0.6383388550958479 0.29481351040334874
164000 0.6630243518728579 0.2854114279303802
173500 0.6851297288822764 0.27295932026317504
183000 0.7023755396278828 0.2611065615876969
192500 0.7196870773623533 0.24308112055394346
202000 0.7320361384109869 0.220385609990985
211500 0.7215634582857706 0.18833464340446976
221000 0.6705516649401136 0.19800901935608786
230500 0.7210570551097749 0.2755861165294196
240000 0.7731576221659856 0.237655695090853
249500 0.7883002772349015 0.19935190954561577
259000 0.777031386132167 0.16327542953478727
268500 0.7702768372796833 0.1786240673301035
278000 0.7846993336017436 0.14381880418292942
287500 0.7369254849827858 0.11123068728604782
297000 0.7433913122109062 0.2109512142481304
306500 0.8018183035606526 0.16493884944341167
316000 0.7906617248717575 0.11912705085029265
325500 0.7378698960391081 0.12778949315142404
335000 0.7858908214931637 0.16283157057305514
344500 0.8120978108017208 0.11047439767054414
354000 0.757184996673395 0.049601621677572705
363500 0.6929142656908149 0.13910260910291222
373000 0.74168596217448 0.15239379886485008
382500 0.7290242083587012 0.16697567120842824
392000 0.7849026592136575 0.22434508908145362
401500 0.8424200853096737 0.18665100373674245
411000 0.8649457030008174 0.15854834989895122
420500 0.8849288512045009 0.12354526416050104
430000 0.8915158423898893 0.08789706640791657
439500 0.8913363892279136 0.05145106437215067
449000 0.8818734093806863 0.017690407352589897
458500 0.8647894306924009 -0.012922995605353956
468000 0.8523947941105037 -0.028794328721704864
477500 0.8458100629502084 -0.07732912257712646
487000 0.7885469234289894 -0.1338181174689267
496500 0.686504298753254 -0.13883646741405678
506000 0.622842791043437 -0.07112159521278619
515500 0.601267015504565 -0.013021887210794364
525000 0.6290836411029413 0.031936080877933176
534500 0.5893613490382794 0.013748858065061823
544000 0.5425660948686079 0.15726529914761325
553500 0.6873395503398759 0.2486197796785551
563000 0.8004393034390175 0.20176323365176116
572500 0.8528671947856756 0.13491020458390285
582000 0.8755034094425221 0.06461621406391015
591500 0.8717151424278226 -0.004529423256941145
601000 0.8443339192653615 -0.05824081301603362
610500 0.8339414534234696 -0.0877710434433618
620000 0.8263134906088857 -0.16798883352545296
629500 0.7641403017708697 -0.25684623475680846
639000 0.6575991404801003 -0.33389830423676414
648500 0.5050566503196164 -0.38501910108792037
658000 0.28349527480515535 -0.3748908669997392
667500 0.043137944915164504 -0.21559761123804055
677000 -0.06432354853605704 0.09016314871337497
686500 0.022811011835055125 0.37786924970778
696000 0.21323831777041605 0.533963336143886
705500 0.3788429179517381 0.5703166160034494
715000 0.49095617471561265 0.5657146994297366
724500 0.5730351182518968 0.5599142095221964
734000 0.649185222819326 0.5449211968548474
743500 0.7092708546174799 0.5193983177917135
753000 0.7555897255252789 0.490812522749031
762500 0.790607909090632 0.46221182962830426
772000 0.8175356522966042 0.4353360451522485
781500 0.8382806278505123 0.4104332666931868
791000 0.8536031632726058 0.3866562341342554
800500 0.8625027717205627 0.36618702691907523
810000 0.8691864873859052 0.35613666063140786
819500 0.8836916771367355 0.344635255214602
829000 0.8948312251341249 0.329784651533471
838500 0.9036663990693212 0.3154633887733669
848000 0.9109993068167823 0.30265666612043923
857500 0.9170247129032505 0.290738403277608
867000 0.9224185961566083 0.27883257977463155
876500 0.9268428668726668 0.26814674267394717
886000 0.930554589565132 0.2574436982402077
895500 0.93266359762478 0.24833349725829573
905000 0.9354605325269604 0.24204051234230622
914500 0.9397314110130723 0.23456918390742643
924000 0.9430052851991831 0.22694985049284058
933500 0.9463639468613982 0.21947448196650324
943000 0.9493920050337877 0.21263897016826672
952500 0.9516883994254245 0.20538634677817577
962000 0.9536621208255005 0.1983655453794639
971500 0.9556972795293069 0.19184907327191064
981000 0.9575173028923107 0.1853261093843836
990500 0.9583947141732504 0.17941302797140968
1000000 0.9597498295202918 0.17492877161004883
