# HZ S RI R 50
50 1.253170848 -0.030238268
30000050 0.997414848 -0.070622432
60000050 0.984385664 -0.155245088
90000050 0.962396096 -0.239349456
120000050 0.931667712 -0.320417568
150000050 0.888667072 -0.407411712
180000050 0.836946112 -0.486363296
210000050 0.787658752 -0.551292928
240000050 0.729971712 -0.613930688
270000050 0.668578368 -0.673399424
300000050 0.60566944 -0.726477056
330000050 0.570344576 -0.721969792
360000050 0.50840896 -0.755268864
390000050 0.444288128 -0.781191616
420000050 0.369032416 -0.805492736
450000050 0.310958848 -0.821845888
480000050 0.259664272 -0.840288384
510000050 0.181105648 -0.838715264
540000050 0.096360176 -0.848436224
570000050 0.05509654 -0.841178368
600000050 0.004558165 -0.839778112
630000050 -0.047328748 -0.837411584
660000050 -0.109770336 -0.840109504
690000050 -0.157542832 -0.821173632
720000050 -0.216253856 -0.81955456
750000050 -0.267331424 -0.806867712
780000050 -0.318426432 -0.690728448
810000050 -0.376555552 -0.789526976
840000050 -0.438072384 -0.785261696
870000050 -0.480785344 -0.769175936
900000050 -0.548700736 -0.75093856
930000050 -0.411479808 -0.636643072
960000050 -0.428070272 -0.592866944
990000050 -0.47195328 -0.561339648
1020000050 -0.489342464 -0.5359552
1050000050 -0.516551008 -0.501660352
1080000050 -0.53459616 -0.466179776
1110000050 -0.553775104 -0.43448784
1140000050 -0.568803648 -0.407916192
1170000050 -0.579144576 -0.374234944
1200000050 -0.598556608 -0.332738976
1230000050 -0.62069472 -0.294748032
1260000050 -0.649840768 -0.269665792
1290000050 -0.680793728 -0.250428848
1320000050 -0.705766848 -0.225861264
1350000050 -0.743738624 -0.196708
1380000050 -0.787378624 -0.153051088
1410000050 -0.836061376 -0.095898032
1440000050 -0.894211136 -0.019172194
1470000050 -0.95751552 0.052891412
1500000050 -0.99487104 0.147159712
1530000050 -0.89269504 0.214655152
1560000050 -0.877385408 0.323899616
1590000050 -0.86341152 0.52808768
1620000050 -0.870923712 0.652958592
1650000050 -0.803754304 0.80151552
1680000050 -0.747696576 0.923094272
1710000050 -0.670859968 1.033215046
1740000050 -0.685738496 1.116306184
1770000050 -0.53088672 1.265683408
1800000050 -0.546547072 1.27614688
1830000050 -0.507733696 1.361901984
1860000050 -0.503025408 1.419229632
1890000050 -0.553765632 1.480935936
1920000050 -0.625872896 1.694649792
1950000050 -0.735493504 1.715090176
1980000050 -0.943985472 1.860691904
2010000050 -1.138710256 1.874410624
2040000050 -1.596053376 1.710376512
2070000050 -1.905118016 1.719793792
2100000050 -2.444474688 2.068333624
2130000050 -1.033985616 1.399977792
2160000050 -1.37892544 1.029014706
2190000050 -1.1740328 1.127249
2220000050 -1.819004864 0.692996288
2250000050 -1.8083184 1.171137088
2280000050 -1.636291968 0.88100928
2310000050 -1.908079488 0.989422912
2340000050 -1.992170304 0.947349376
2370000050 -2.527982944 0.321368192
2400000050 -1.834381696 0.603054144
2430000050 -1.938978048 0.386377856
2460000050 -2.332648512 0.315589056
2490000050 -2.236871952 -0.091592
2520000050 -1.94151232 -0.297840768
2550000050 -2.388539328 -0.632980736
2580000050 -1.709328192 -0.040416032
2610000050 -1.912898304 -0.234750016
2640000050 -2.031401158 -0.413277728
2670000050 -1.807084544 -0.703495296
2700000050 -1.530689248 -0.282775968
2730000050 3.440446624 0.363254336
2760000050 1.363332864 0.940415104
2790000050 1.598877184 0.264884896
2820000050 1.419419648 0.822209856
2850000050 1.354673152 0.48381648
2880000050 1.92986976 0.164723808
2910000050 1.35096992 0.54328256
2940000050 1.42014624 0.1617532
2970000050 1.475701568 -0.289108832
3000000050 1.384271136 0.046526948
