# HZ S RI R 50
800000000 -0.357567552 -0.782870464
802000000 -0.360085472 -0.787587584
804000000 -0.368931904 -0.776403264
806000000 -0.386847232 -0.781514176
808000000 -0.378395072 -0.783028032
810000000 -0.385237792 -0.772342912
812000000 -0.376679584 -0.772544448
814000000 -0.386830816 -0.781398144
816000000 -0.39440528 -0.777155136
818000000 -0.3808992 -0.774692096
820000000 -0.391987808 -0.774276096
822000000 -0.404287904 -0.779810432
824000000 -0.399915936 -0.775612032
826000000 -0.409188544 -0.76789376
828000000 -0.419129856 -0.768493056
830000000 -0.411709216 -0.7622144
832000000 -0.41852944 -0.77516576
834000000 -0.408914816 -0.769702336
836000000 -0.42467264 -0.775494656
838000000 -0.431672032 -0.759830016
840000000 -0.444573856 -0.75994496
842000000 -0.43471072 -0.763519552
844000000 -0.442463232 -0.758727104
846000000 -0.43989616 -0.759474496
848000000 -0.442730624 -0.766075328
850000000 -0.456069088 -0.773852224
852000000 -0.456120608 -0.759486528
854000000 -0.461284032 -0.761179584
856000000 -0.456008896 -0.761252928
858000000 -0.331234688 -0.730107456
860000000 -0.469178784 -0.752300416
862000000 -0.475169312 -0.754987136
864000000 -0.466822176 -0.76118752
866000000 -0.48605808 -0.744823488
868000000 -0.485518496 -0.753332352
870000000 -0.490248672 -0.758336256
872000000 -0.498920096 -0.745884032
874000000 -0.491997504 -0.756262016
876000000 -0.494948928 -0.755411328
878000000 -0.499839904 -0.75360896
880000000 -0.515973344 -0.761815616
882000000 -0.499675488 -0.75148224
884000000 -0.52368384 -0.751505152
886000000 -0.520513312 -0.753732928
888000000 -0.519506336 -0.757492928
890000000 -0.533770272 -0.740181248
892000000 -0.524993952 -0.75430048
894000000 -0.523127392 -0.758014272
896000000 -0.543493056 -0.72828544
898000000 -0.54330656 -0.740272576
900000000 -0.536215616 -0.73158144
902000000 -0.386727584 -0.666291584
904000000 -0.395522048 -0.665696512
906000000 -0.388025952 -0.650042048
908000000 -0.387331776 -0.657208128
910000000 -0.39876272 -0.667658048
912000000 -0.388863008 -0.647953792
914000000 -0.394830688 -0.651269248
916000000 -0.398332416 -0.642993472
918000000 -0.395903744 -0.639635968
920000000 -0.40141072 -0.636319232
922000000 -0.399789216 -0.63606016
924000000 -0.402477952 -0.631588608
926000000 -0.405346528 -0.627893696
928000000 -0.406293088 -0.630021248
930000000 -0.407109824 -0.62531808
932000000 -0.4121112 -0.62339136
934000000 -0.414054752 -0.622502784
936000000 -0.413247264 -0.619356352
938000000 -0.4125368 -0.618074688
940000000 -0.41913424 -0.614638464
942000000 -0.418582368 -0.610545728
944000000 -0.4193856 -0.610189376
946000000 -0.423053152 -0.607460544
948000000 -0.42634272 -0.604588352
950000000 -0.428231136 -0.60194336
952000000 -0.425879808 -0.602400192
954000000 -0.42964336 -0.600435008
956000000 -0.431597952 -0.595998784
958000000 -0.428321056 -0.585057856
960000000 -0.435489728 -0.59128576
962000000 -0.436920544 -0.589006592
964000000 -0.438787808 -0.587982208
966000000 -0.441694208 -0.588257216
968000000 -0.447017696 -0.585296896
970000000 -0.44254784 -0.582180352
972000000 -0.447306528 -0.580067776
974000000 -0.446041312 -0.576729728
976000000 -0.451074464 -0.576280128
978000000 -0.451872928 -0.5751936
980000000 -0.45360576 -0.57326048
982000000 -0.455219104 -0.570932352
984000000 -0.45765776 -0.56913088
986000000 -0.4603488 -0.568288896
988000000 -0.46058272 -0.56025216
990000000 -0.461256608 -0.56354944
992000000 -0.465390688 -0.559840768
994000000 -0.465874112 -0.559998016
996000000 -0.468667232 -0.558535104
998000000 -0.468584288 -0.553359808
1000000000 -0.47025296 -0.547678976
