# HZ S RI R 50
100000 0.998654784 0.004358941
10099000 0.998041344 -0.018669434
20098000 0.996205184 -0.044157112
30097000 0.99417856 -0.070659952
40096000 0.991230848 -0.098148344
50095000 0.986669632 -0.125767184
60094000 0.98167328 -0.154181712
70093000 0.975748032 -0.182994544
80092000 0.968244096 -0.210047584
90091000 0.959510848 -0.238239728
100090000 0.950494464 -0.265463472
110089000 0.940326592 -0.292095296
120088000 0.928995968 -0.318882336
130087000 0.912766528 -0.353930784
140086000 0.897951808 -0.38280592
150085000 0.886100416 -0.407256608
160084000 0.871620096 -0.432173024
170083000 0.855342848 -0.45763952
180082000 0.835057664 -0.485894496
190081000 0.820364736 -0.50661856
200080000 0.803639936 -0.528405024
210079000 0.785507648 -0.551034816
220078000 0.767166272 -0.572249024
230077000 0.747573056 -0.592756864
240076000 0.727033984 -0.613184832
250075000 0.707430208 -0.632899264
260074000 0.686791808 -0.653672064
270073000 0.665584 -0.673119104
280072000 0.645667584 -0.691055808
290071000 0.625221248 -0.708086336
300070000 0.6360352 -0.676832512
310069000 0.614570752 -0.692969984
320068000 0.589213632 -0.70905216
330067000 0.570654016 -0.723477184
340066000 0.549871872 -0.728092672
350065000 0.527003584 -0.739184384
360064000 0.51134032 -0.752925504
370063000 0.486229728 -0.762686592
380062000 0.4652024 -0.77257568
390061000 0.438651712 -0.781419584
400060000 0.412840896 -0.788576192
410059000 0.391362336 -0.802117056
420058000 0.370732128 -0.807015744
430057000 0.350815584 -0.813298304
440056000 0.334359232 -0.81983392
450055000 0.307470752 -0.824310784
460054000 0.289183904 -0.828017216
470053000 0.272102976 -0.841392128
480052000 0.2411772 -0.833128704
490051000 0.223060288 -0.82937728
500050000 0.203319984 -0.833182464
510049000 0.173661152 -0.83100064
520048000 0.14902208 -0.840246656
530047000 0.131975648 -0.841117824
540046000 0.099467048 -0.843799296
550045000 0.08090252 -0.835473024
560044000 0.070037488 -0.837300544
570043000 0.051879908 -0.833310336
580042000 0.038761672 -0.843737408
590041000 0.01453482 -0.833785408
600040000 0.007094188 -0.829268352
610039000 -0.012864272 -0.837411136
620038000 -0.03150221 -0.835674816
630037000 -0.04929512 -0.827513408
640036000 -0.067054048 -0.831882816
650035000 -0.084889976 -0.834833728
660034000 -0.104385528 -0.838379328
670033000 -0.119042656 -0.826778304
680032000 -0.143373712 -0.828117952
690031000 -0.159840192 -0.824552064
700030000 -0.179710544 -0.819280768
710029000 -0.200033712 -0.816761152
720028000 -0.219674288 -0.809353344
730027000 -0.239281264 -0.806799232
740026000 -0.252571888 -0.802117568
750025000 -0.269296608 -0.804438208
760024000 -0.288964704 -0.802065728
770023000 -0.311847552 -0.7990048
780022000 -0.314954688 -0.787789504
790021000 -0.352389888 -0.796000832
800020000 -0.362893568 -0.786152
810019000 -0.392501792 -0.776775232
820018000 -0.38445808 -0.766358464
830017000 -0.412994784 -0.778484928
840016000 -0.426522432 -0.761322944
850015000 -0.444354912 -0.752159616
860014000 -0.455600992 -0.756815104
870013000 -0.484367904 -0.75282912
880012000 -0.506645024 -0.748925248
890011000 -0.530010816 -0.73171552
900010000 -0.383252352 -0.665515904
910009000 -0.057597988 -0.461107936
920008000 -0.402404576 -0.635485184
930007000 -0.409034208 -0.627946304
940006000 -0.418460608 -0.611928128
950005000 -0.42594736 -0.60176928
960004000 -0.437098368 -0.590472192
970003000 -0.446221728 -0.58101632
980002000 -0.456044 -0.571104704
990001000 -0.466748224 -0.561691712
1000000000 -0.473443232 -0.549558912
